Circuit: * C:\Users\shuof\PycharmProjects\capstone\test_data\2N3904_common_emitter.asc

WARNING: Node VOUT is floating.

WARNING: Less than two connections to node VOUT.  This node is used by C3.
Direct Newton iteration for .op point succeeded.
Semiconductor Device Operating Points:
                        --- Bipolar Transistors ---
Name:       q1
Model:    2n3904
Ib:       1.25e-07
Ic:       3.91e-05
Vbe:      5.70e-01
Vbc:     -4.12e+00
Vce:      4.69e+00
BetaDC:   3.12e+02
Gm:       1.52e-03
Rpi:      2.05e+05
Rx:       2.00e+01
Ro:       2.64e+06
Cbe:      1.23e-11
Cbc:      2.16e-12
Cjs:      0.00e+00
BetaAC:   3.12e+02
Cbx:      0.00e+00
Ft:       1.67e+07



Date: Tue Jan 12 20:48:11 2021
Total elapsed time: 0.016 seconds.

tnom = 27
temp = 27
method = trap
totiter = 9
traniter = 0
tranpoints = 0
accept = 0
rejected = 0
matrix size = 12
fillins = 0
solver = Normal
Matrix Compiler1: 624 bytes object code size
Matrix Compiler2: 920 bytes object code size
