Circuit: * C:\Users\shuof\PycharmProjects\capstone\test_data\2N3904_common_emitter.asc

Direct Newton iteration for .op point succeeded.
Semiconductor Device Operating Points:
                        --- Bipolar Transistors ---
Name:       q1
Model:    2n3904
Ib:       5.95e-05
Ic:       8.09e-04
Vbe:      6.59e-01
Vbc:      6.17e-01
Vce:      4.13e-02
BetaDC:   1.36e+01
Gm:       3.33e-02
Rpi:      7.08e+03
Rx:       2.00e+01
Ro:       1.17e+02
Cbe:      2.72e-11
Cbc:      2.16e-09
Cjs:      0.00e+00
BetaAC:   2.36e+02
Cbx:      0.00e+00
Ft:       2.42e+06



Date: Thu Apr 01 12:58:01 2021
Total elapsed time: 0.076 seconds.

tnom = 27
temp = 27
method = trap
totiter = 10
traniter = 0
tranpoints = 0
accept = 0
rejected = 0
matrix size = 12
fillins = 0
solver = Normal
Matrix Compiler1: 624 bytes object code size
Matrix Compiler2: 920 bytes object code size
