Circuit: * C:\Users\shuof\PycharmProjects\capstone\test_data\2N3904_cascode.asc

Direct Newton iteration for .op point succeeded.
Semiconductor Device Operating Points:
                        --- Bipolar Transistors ---
Name:       q2          q1
Model:    2n3904      2n3904
Ib:       6.43e-06    6.02e-06
Ic:       1.93e-03    1.92e-03
Vbe:      6.72e-01    6.71e-01
Vbc:     -3.32e-01   -6.79e+00
Vce:      1.00e+00    7.46e+00
BetaDC:   3.00e+02    3.19e+02
Gm:       7.42e-02    7.39e-02
Rpi:      4.02e+03    4.29e+03
Rx:       2.00e+01    2.00e+01
Ro:       5.21e+04    5.56e+04
Cbe:      3.86e-11    3.86e-11
Cbc:      3.54e-12    1.87e-12
Cjs:      0.00e+00    0.00e+00
BetaAC:   2.98e+02    3.17e+02
Cbx:      0.00e+00    0.00e+00
Ft:       2.80e+08    2.91e+08



Date: Thu Jan 14 15:04:45 2021
Total elapsed time: 0.010 seconds.

tnom = 27
temp = 27
method = trap
totiter = 6
traniter = 0
tranpoints = 0
accept = 0
rejected = 0
matrix size = 18
fillins = 6
solver = Normal
Matrix Compiler1: 1.41 KB object code size
Matrix Compiler2: 1.53 KB object code size
