Circuit: * C:\Users\Syouq\OneDrive\桌面\test circuits\InverterFB_ltspice3_.asc

Model "pmos0p5": Oxide thickness thinner than recommended for a level 1 MOSFET.
Instance "m1": Length shorter than recommended for a level 1 MOSFET.
Model "nmos0p5": Oxide thickness thinner than recommended for a level 1 MOSFET.
Instance "m2": Length shorter than recommended for a level 1 MOSFET.
Direct Newton iteration for .op point succeeded.
Semiconductor Device Operating Points:
                        --- MOSFET Transistors ---
Name:          m1          m2
Model:       pmos0p5     nmos0p5
Id:         -1.21e-03    1.21e-03
Vgs:        -1.99e+00    2.01e+00
Vds:        -1.99e+00    2.01e+00
Vbs:         0.00e+00    0.00e+00
Vth:        -6.00e-01    7.00e-01
Vdsat:      -1.39e+00    1.31e+00
Gm:          1.73e-03    1.85e-03
Gds:         1.73e-04    1.01e-04
Gmb:         4.50e-04    5.16e-04
Cbd:         0.00e+00    0.00e+00
Cbs:         0.00e+00    0.00e+00
Cgsov:       2.10e-05    8.00e-15
Cgdov:       2.10e-14    8.00e-15
Cgbov:       1.07e-15    1.08e-15
Cgs:         4.10e-13    1.38e-13
Cgd:         0.00e+00    0.00e+00
Cgb:         0.00e+00    0.00e+00



Date: Wed Sep 22 13:53:02 2021
Total elapsed time: 0.096 seconds.

tnom = 27
temp = 27
method = trap
totiter = 6
traniter = 0
tranpoints = 0
accept = 0
rejected = 0
matrix size = 6
fillins = 0
solver = Normal
Matrix Compiler1: 182 bytes object code size
Matrix Compiler2: 448 bytes object code size
