Circuit: * C:\Users\Syouq\Documents\capstone-master\capstone-master\test_data\test_circuit.asc

WARNING: Less than two connections to node VCC.  This node is used by R3.
Direct Newton iteration for .op point succeeded.
Semiconductor Device Operating Points:
                        --- VDMOSFET Transistors ---
Name:          m2          m1
Model:      aon6667_n   aon6667_p
Id:          1.00e+00    1.00e+00
Vgs:         2.72e+00    7.51e-01
Vds:         1.97e+00    7.51e-01
Vth:         2.41e+00   -2.68e+00
Gm:          6.02e+00    1.52e-23
Gds:         6.15e-02    7.70e-26
Cgs:         3.32e-10    9.15e-10
Cgd:         1.96e-10    4.00e-10
Cbody:       4.68e-11    5.32e-07



Date: Wed Jul 07 12:54:24 2021
Total elapsed time: 0.059 seconds.

tnom = 27
temp = 27
method = trap
totiter = 13
traniter = 0
tranpoints = 0
accept = 0
rejected = 0
matrix size = 11
fillins = 4
solver = Normal
Matrix Compiler1: 1.15 KB object code size
Matrix Compiler2: 1.02 KB object code size
