
Direct Newton iteration for .op point succeeded.
Semiconductor Device Operating Points:
                        --- VDMOSFET Transistors ---
Name:          m1
Model:        bsp89
Id:          3.96e-02
Vgs:         1.92e+00
Vds:         7.95e+00
Vth:         1.60e+00
Gm:          2.99e-01
Gds:         3.68e-04
Cgs:         7.00e-11
Cgd:         2.22e-11
Cbody:       5.65e-12



Date: Wed Aug 04 13:42:09 2021
Total elapsed time: 0.073 seconds.

tnom = 27
temp = 27
method = trap
totiter = 7
traniter = 0
tranpoints = 0
accept = 0
rejected = 0
matrix size = 13
fillins = 2
solver = Normal
Matrix Compiler1: 736 bytes object code size
Matrix Compiler2: 1.02 KB object code size
